(1612152851.392446) vcan0 0F6#4119961BD8A77217
(1612152851.592611) vcan0 02D#5217
(1612152851.792737) vcan0 224#20F3
(1612152851.992861) vcan0 7B6#7693B04282CC
(1612152852.192982) vcan0 6CB#60D6690479B88A5F
(1612152852.393137) vcan0 0E7#86DFA309
(1612152852.593259) vcan0 028#9AB7D747AFA51820
(1612152852.793379) vcan0 05C#B93BB02952112501
(1612152852.993527) vcan0 7E6#2AB9971814B8AE55
(1612152853.193675) vcan0 7AC#7690FA03D0C14846
(1612152853.393801) vcan0 04E#67CC1262055043
(1612152853.593923) vcan0 46D#871C075B3893C322
(1612152853.794042) vcan0 53B#B14B4E0222764B07
(1612152853.994212) vcan0 37C#BC2C5E6BA48B3124
(1612152854.194364) vcan0 003#54314A445FF8CF
(1612152854.394485) vcan0 720#B109F5710637E254
(1612152854.594609) vcan0 207#1AEF902AB369955C
(1612152854.794730) vcan0 358#83
(1612152854.994874) vcan0 328#AC63D11395AF4A32
(1612152855.194999) vcan0 7C7#CD420E
(1612152855.395129) vcan0 31B#24833A3F973ED326
(1612152855.595261) vcan0 1B7#3C
(1612152855.795382) vcan0 438#
(1612152855.995533) vcan0 09D#5E12D908A42A8A30
(1612152856.195680) vcan0 6A7#57941F0D00AA2758
(1612152856.395806) vcan0 10A#A7BDB57E32843060
(1612152856.595996) vcan0 7C4#C7337B
(1612152856.796123) vcan0 186#8D1C9216
(1612152856.996247) vcan0 513#39
(1612152857.196450) vcan0 792#8510DD51CA
(1612152857.396602) vcan0 105#22BF2A12A281194E
(1612152857.596733) vcan0 66A#46
(1612152857.796851) vcan0 2FA#126FE47904546330
(1612152857.997001) vcan0 077#36D893103BB8AF70
(1612152858.197124) vcan0 60C#C6C7524F92EF800C
(1612152858.397280) vcan0 291#34042A
(1612152858.597405) vcan0 405#6F46B36B97D3163C
(1612152858.797528) vcan0 4E3#62B74A1A
(1612152858.997696) vcan0 193#8B0F1133
(1612152859.197850) vcan0 005#1025
(1612152859.397979) vcan0 46F#036F
(1612152859.598104) vcan0 0DB#22B5E869E70E0554
(1612152859.798225) vcan0 336#79FE8560C8D58504
(1612152859.998344) vcan0 13C#6D5D044E41E5D15A
(1612152860.198494) vcan0 21C#D9B8E816FFCE7D23
(1612152860.398617) vcan0 2D1#E85C750864AC2D27
(1612152860.598746) vcan0 6BF#620CD65B
(1612152860.798868) vcan0 046#C449
(1612152860.999017) vcan0 594#9C21EC236F86684B
(1612152861.199140) vcan0 001#56956D1F38531F52
(1612152861.399267) vcan0 3A8#
(1612152861.599432) vcan0 67E#269A02419AF0F94B
(1612152861.799559) vcan0 249#99BF776F1A25A955
(1612152861.999702) vcan0 33A#7FD1
(1612152862.199849) vcan0 0F6#BE
(1612152862.399980) vcan0 754#F1D561
(1612152862.600106) vcan0 34B#585BD5584CDB7820
(1612152862.800227) vcan0 64D#842E9872F5213344
(1612152863.000351) vcan0 47E#D9D6632A
(1612152863.200472) vcan0 5F1#960BD4003B08484C
(1612152863.400632) vcan0 3FE#
(1612152863.600760) vcan0 7B2#32313833
(1612152863.800881) vcan0 4B6#
(1612152864.001076) vcan0 473#F2C0C90FBE
(1612152864.201198) vcan0 763#0BE3D46EB0BD2D74
(1612152864.401351) vcan0 4F9#A5DF603877911859
(1612152864.601478) vcan0 114#74ACF20D05479118
(1612152864.801598) vcan0 77E#404FD9647DEB7C11
(1612152865.001745) vcan0 33A#B572ED5DEC6A
